2021_04_14 2021-04-14 10:26:56   连接192.168.1.136成功2021_04_14 2021-04-14 10:27:29   连接192.168.1.136成功2021_04_14 2021-04-14 10:29:09   连接192.168.1.136成功2021_04_14 2021-04-14 10:30:48   连接192.168.1.136成功2021_04_14 2021-04-14 10:32:20   连接192.168.1.136成功2021_04_14 2021-04-14 10:33:03   连接192.168.1.136成功2021_04_14 2021-04-14 10:33:53   连接192.168.1.136成功2021_04_14 2021-04-14 10:38:08   连接192.168.1.136成功2021_04_14 2021-04-14 15:49:00   设备relay_2连接IP ：192.168.1.136 成功
2021_04_14 2021-04-14 15:49:32   设备relay_2连接IP ：192.168.1.136 成功
2021_04_14 2021-04-14 15:49:35   继电器relay_2返回指令：FE 01 01 00 61 9C 
2021_04_14 2021-04-14 15:49:39   继电器relay_2返回指令：FE 01 01 00 61 9C 
2021_04_14 2021-04-14 15:49:42   继电器relay_2返回指令：FE 01 01 00 61 9C 
2021_04_14 2021-04-14 15:49:45   继电器relay_2返回指令：FE 01 01 00 61 9C 
2021_04_14 2021-04-14 15:49:46   尝试[开启]第9台供电
2021_04_14 2021-04-14 15:49:46   [开启]第9台供电成功
2021_04_14 2021-04-14 15:49:47   尝试[开启]第10台供电
2021_04_14 2021-04-14 15:49:47   [开启]第10台供电成功
2021_04_14 2021-04-14 15:49:48   继电器relay_2返回指令：FE 05 00 00 FF 00 98 35 FE 05 00 00 FF 00 98 35 FE 05 00 01 FF 00 C9 F5 FE 05 00 01 FF 00 C9 F5 FE 01 01 03 21 9D 
2021_04_14 2021-04-14 15:49:48   尝试[关闭]第11台供电
2021_04_14 2021-04-14 15:49:48   [关闭]第11台供电成功
2021_04_14 2021-04-14 15:49:49   尝试[开启]第11台供电
2021_04_14 2021-04-14 15:49:49   [开启]第11台供电成功
2021_04_14 2021-04-14 15:49:50   尝试[开启]第12台供电
2021_04_14 2021-04-14 15:49:50   [开启]第12台供电成功
2021_04_14 2021-04-14 15:49:51   尝试[开启]第13台供电
2021_04_14 2021-04-14 15:49:51   [开启]第13台供电成功
2021_04_14 2021-04-14 15:49:51   继电器relay_2返回指令：FE 05 00 02 00 00 78 05 FE 05 00 02 00 00 78 05 FE 05 00 02 FF 00 39 F5 FE 05 00 02 FF 00 39 F5 FE 05 00 03 FF 00 68 35 FE 05 00 03 FF 00 68 35 FE 05 00 04 FF 00 D9 F4 
2021_04_14 2021-04-14 15:49:55   继电器relay_2通信失败！
2021_04_14 2021-04-14 15:49:58   继电器relay_2通信失败！
2021_04_14 2021-04-14 15:49:58   尝试[关闭]第13台供电
2021_04_14 2021-04-14 15:49:58   [关闭]第13台供电成功
2021_04_14 2021-04-14 15:50:00   尝试[关闭]第12台供电
2021_04_14 2021-04-14 15:50:00   [关闭]第12台供电成功
2021_04_14 2021-04-14 15:50:01   继电器relay_2通信失败！
2021_04_14 2021-04-14 15:50:02   尝试[关闭]第11台供电
2021_04_14 2021-04-14 15:50:02   [关闭]第11台供电成功
2021_04_14 2021-04-14 15:50:04   尝试[关闭]第10台供电
2021_04_14 2021-04-14 15:50:04   [关闭]第10台供电成功
2021_04_14 2021-04-14 15:50:05   继电器relay_2通信失败！
2021_04_14 2021-04-14 15:50:06   尝试[关闭]第9台供电
2021_04_14 2021-04-14 15:50:06   [关闭]第9台供电成功
2021_04_14 2021-04-14 15:50:08   继电器relay_2通信失败！
2021_04_14 2021-04-14 15:50:12   继电器relay_2通信失败！
2021_04_14 2021-04-14 15:50:15   继电器relay_2通信失败！
2021_04_14 2021-04-14 15:50:18   继电器relay_2通信失败！
2021_04_14 2021-04-14 15:50:22   继电器relay_2通信失败！
2021_04_14 2021-04-14 15:50:25   继电器relay_2通信失败！
2021_04_14 2021-04-14 15:50:28   继电器relay_2通信失败！
2021_04_14 2021-04-14 15:53:57   设备relay_2连接IP ：192.168.1.136 成功
2021_04_14 2021-04-14 15:54:00   继电器relay_2返回指令：FE 01 01 00 61 9C 
2021_04_14 2021-04-14 15:54:03   继电器relay_2返回指令：FE 01 01 00 61 9C 
2021_04_14 2021-04-14 15:54:06   继电器relay_2返回指令：FE 01 01 00 61 9C 
2021_04_14 2021-04-14 15:54:09   继电器relay_2返回指令：FE 01 01 00 61 9C 
2021_04_14 2021-04-14 15:54:13   继电器relay_2返回指令：FE 01 01 00 61 9C 
2021_04_14 2021-04-14 15:54:16   继电器relay_2返回指令：FE 01 01 00 61 9C 
2021_04_14 2021-04-14 15:54:19   继电器relay_2返回指令：FE 01 01 00 61 9C 
2021_04_14 2021-04-14 15:54:22   继电器relay_2返回指令：FE 01 01 00 61 9C 
2021_04_14 2021-04-14 15:54:26   继电器relay_2返回指令：FE 01 01 00 61 9C 
2021_04_14 2021-04-14 15:54:29   继电器relay_2返回指令：FE 01 01 00 61 9C 
2021_04_14 2021-04-14 15:54:32   继电器relay_2返回指令：FE 01 01 00 61 9C 
2021_04_14 2021-04-14 15:54:35   继电器relay_2返回指令：FE 01 01 00 61 9C 
2021_04_14 2021-04-14 15:54:38   继电器relay_2返回指令：FE 01 01 00 61 9C 
2021_04_14 2021-04-14 15:54:42   继电器relay_2返回指令：FE 01 01 00 61 9C 
2021_04_14 2021-04-14 15:54:45   继电器relay_2返回指令：FE 01 01 00 61 9C 
2021_04_14 2021-04-14 15:54:48   继电器relay_2返回指令：FE 01 01 00 61 9C 
2021_04_14 2021-04-14 15:54:51   继电器relay_2返回指令：FE 01 01 00 61 9C 
2021_04_14 2021-04-14 15:54:55   继电器relay_2返回指令：FE 01 01 00 61 9C 
2021_04_14 2021-04-14 15:54:58   继电器relay_2返回指令：FE 01 01 00 61 9C 
2021_04_14 2021-04-14 15:55:01   继电器relay_2返回指令：FE 01 01 00 61 9C 
2021_04_14 2021-04-14 15:55:04   继电器relay_2返回指令：FE 01 01 00 61 9C 
2021_04_14 2021-04-14 15:55:07   继电器relay_2返回指令：FE 01 01 00 61 9C 
2021_04_14 2021-04-14 15:55:11   继电器relay_2返回指令：FE 01 01 00 61 9C 
2021_04_14 2021-04-14 15:55:14   继电器relay_2返回指令：FE 01 01 00 61 9C 
2021_04_14 2021-04-14 15:55:17   继电器relay_2返回指令：FE 01 01 00 61 9C 
2021_04_14 2021-04-14 15:55:20   继电器relay_2返回指令：FE 01 01 00 61 9C 
2021_04_14 2021-04-14 15:55:24   继电器relay_2返回指令：FE 01 01 00 61 9C 
2021_04_14 2021-04-14 15:55:27   继电器relay_2返回指令：FE 01 01 00 61 9C 
2021_04_14 2021-04-14 15:55:30   继电器relay_2返回指令：FE 01 01 00 61 9C 
2021_04_14 2021-04-14 15:55:33   继电器relay_2返回指令：FE 01 01 00 61 9C 
2021_04_14 2021-04-14 15:55:36   继电器relay_2返回指令：FE 01 01 00 61 9C 
2021_04_14 2021-04-14 15:55:40   继电器relay_2返回指令：FE 01 01 00 61 9C 
2021_04_14 2021-04-14 15:55:41   尝试[开启]第9台供电
2021_04_14 2021-04-14 15:55:41   [开启]第9台供电成功
2021_04_14 2021-04-14 15:55:42   尝试[开启]第10台供电
2021_04_14 2021-04-14 15:55:43   [开启]第10台供电成功
2021_04_14 2021-04-14 15:55:43   继电器relay_2返回指令：FE 05 00 00 FF 00 98 35 FE 05 00 00 FF 00 98 35 FE 05 00 01 FF 00 C9 F5 FE 05 00 01 FF 00 C9 F5 FE 01 01 03 21 9D 
2021_04_14 2021-04-14 15:55:44   尝试[开启]第11台供电
2021_04_14 2021-04-14 15:55:44   [开启]第11台供电成功
2021_04_14 2021-04-14 15:55:45   尝试[开启]第12台供电
2021_04_14 2021-04-14 15:55:45   [开启]第12台供电成功
2021_04_14 2021-04-14 15:55:46   继电器relay_2返回指令：FE 05 00 02 FF 00 39 F5 FE 05 00 02 FF 00 39 F5 FE 05 00 03 FF 00 68 35 FE 05 00 03 FF 00 68 35 FE 01 01 0F 21 98 
2021_04_14 2021-04-14 15:55:46   尝试[开启]第13台供电
2021_04_14 2021-04-14 15:55:47   [开启]第13台供电成功
2021_04_14 2021-04-14 15:55:49   继电器relay_2返回指令：FE 05 00 04 FF 00 D9 F4 FE 05 00 04 FF 00 D9 F4 FE 01 01 1F 20 54 
2021_04_14 2021-04-14 15:55:53   继电器relay_2返回指令：FE 01 01 1F 20 54 
2021_04_14 2021-04-14 15:55:56   继电器relay_2返回指令：FE 01 01 1F 20 54 
2021_04_14 2021-04-14 15:55:59   继电器relay_2返回指令：FE 01 01 1F 20 54 
2021_04_14 2021-04-14 15:56:02   继电器relay_2返回指令：FE 01 01 1F 20 54 
2021_04_14 2021-04-14 15:56:05   继电器relay_2返回指令：FE 01 01 1F 20 54 
2021_04_14 2021-04-14 15:56:09   继电器relay_2返回指令：FE 05 00 04 00 00 98 04 FE 05 00 04 00 00 98 04 FE 01 01 0F 21 98 
2021_04_14 2021-04-14 15:56:12   继电器relay_2返回指令：FE 05 00 03 00 00 29 C5 FE 05 00 03 00 00 29 C5 FE 01 01 07 20 5E 
2021_04_14 2021-04-14 15:56:15   继电器relay_2返回指令：FE 05 00 02 00 00 78 05 FE 05 00 02 00 00 78 05 FE 01 01 03 21 9D 
2021_04_14 2021-04-14 15:56:18   继电器relay_2返回指令：FE 05 00 01 00 00 88 05 FE 05 00 01 00 00 88 05 FE 01 01 01 A0 5C 
2021_04_14 2021-04-14 15:56:21   继电器relay_2返回指令：FE 05 00 00 00 00 D9 C5 FE 05 00 00 00 00 D9 C5 FE 01 01 00 61 9C 
2021_04_14 2021-04-14 15:56:25   继电器relay_2返回指令：FE 01 01 00 61 9C 
2021_04_14 2021-04-14 15:56:28   继电器relay_2返回指令：FE 01 01 00 61 9C 
2021_04_14 2021-04-14 15:56:31   继电器relay_2返回指令：FE 01 01 00 61 9C 
2021_04_14 2021-04-14 15:56:34   继电器relay_2返回指令：FE 05 00 05 00 00 C9 C4 FE 01 01 00 61 9C 
2021_04_14 2021-04-14 15:58:51   设备relay_2连接IP ：192.168.1.136 成功
2021_04_14 2021-04-14 15:58:54   继电器relay_2返回指令：FE 01 01 00 61 9C 
2021_04_14 2021-04-14 15:58:57   继电器relay_2返回指令：FE 01 01 00 61 9C 
2021_04_14 2021-04-14 15:59:00   继电器relay_2返回指令：FE 01 01 00 61 9C 
2021_04_14 2021-04-14 15:59:04   继电器relay_2返回指令：FE 01 01 00 61 9C 
2021_04_14 2021-04-14 15:59:07   继电器relay_2返回指令：FE 01 01 00 61 9C 
2021_04_14 2021-04-14 15:59:10   继电器relay_2返回指令：FE 05 00 05 00 00 C9 C4 FE 01 01 00 61 9C 
