2021_04_27 2021-04-27 13:47:06   设备relay_2连接IP ：192.168.1.136 失败
2021_04_27 2021-04-27 13:47:10   继电器relay_2通信失败！
2021_04_27 2021-04-27 13:47:13   继电器relay_2通信失败！
2021_04_27 2021-04-27 13:47:17   继电器relay_2通信失败！
2021_04_27 2021-04-27 13:47:20   继电器relay_2通信失败！
2021_04_27 2021-04-27 13:47:24   继电器relay_2通信失败！
2021_04_27 2021-04-27 13:47:27   继电器relay_2通信失败！
2021_04_27 2021-04-27 13:47:31   继电器relay_2通信失败！
2021_04_27 2021-04-27 13:47:35   继电器relay_2通信失败！
2021_04_27 2021-04-27 13:47:38   继电器relay_2通信失败！
2021_04_27 2021-04-27 13:47:42   继电器relay_2通信失败！
2021_04_27 2021-04-27 13:47:45   继电器relay_2通信失败！
2021_04_27 2021-04-27 13:47:50   设备relay_2连接IP ：192.168.1.136 失败
2021_04_27 2021-04-27 13:47:54   继电器relay_2通信失败！
2021_04_27 2021-04-27 13:47:57   继电器relay_2通信失败！
2021_04_27 2021-04-27 13:48:01   继电器relay_2通信失败！
2021_04_27 2021-04-27 13:48:04   继电器relay_2返回指令：FE 01 01 00 61 9C 
2021_04_27 2021-04-27 13:48:07   继电器relay_2返回指令：FE 01 01 00 61 9C 
2021_04_27 2021-04-27 13:48:11   继电器relay_2返回指令：FE 01 01 00 61 9C 
2021_04_27 2021-04-27 13:48:14   继电器relay_2返回指令：FE 01 01 00 61 9C 
2021_04_27 2021-04-27 13:48:17   继电器relay_2返回指令：FE 01 01 00 61 9C 
2021_04_27 2021-04-27 13:48:20   继电器relay_2返回指令：FE 01 01 00 61 9C 
2021_04_27 2021-04-27 13:48:20   尝试[开启]第9台供电
2021_04_27 2021-04-27 13:48:21   [开启]第9台供电成功
2021_04_27 2021-04-27 13:48:25   设备relay_2连接IP ：192.168.1.136 成功
2021_04_27 2021-04-27 13:48:29   继电器relay_2返回指令：FE 01 01 01 A0 5C 
2021_04_27 2021-04-27 13:48:32   继电器relay_2返回指令：FE 01 01 01 A0 5C 
2021_04_27 2021-04-27 13:48:35   继电器relay_2返回指令：FE 01 01 01 A0 5C 
2021_04_27 2021-04-27 13:48:38   继电器relay_2返回指令：FE 01 01 01 A0 5C 
2021_04_27 2021-04-27 13:48:42   继电器relay_2返回指令：FE 01 01 01 A0 5C 
2021_04_27 2021-04-27 13:48:45   继电器relay_2返回指令：FE 05 00 00 00 00 D9 C5 FE 05 00 00 00 00 D9 C5 FE 01 01 00 61 9C 
2021_04_27 2021-04-27 13:48:48   继电器relay_2返回指令：FE 01 01 00 61 9C 
2021_04_27 2021-04-27 13:55:09   设备relay_2连接IP ：192.168.1.136 失败
2021_04_27 2021-04-27 13:55:13   继电器relay_2通信失败！
2021_04_27 2021-04-27 13:55:16   继电器relay_2通信失败！
2021_04_27 2021-04-27 13:55:20   继电器relay_2通信失败！
2021_04_27 2021-04-27 13:55:23   继电器relay_2返回指令：FE 01 01 00 61 9C 
2021_04_27 2021-04-27 13:55:26   继电器relay_2返回指令：FE 01 01 00 61 9C 
2021_04_27 2021-04-27 13:55:29   继电器relay_2返回指令：FE 01 01 00 61 9C 
2021_04_27 2021-04-27 13:55:33   继电器relay_2返回指令：FE 01 01 00 61 9C 
2021_04_27 2021-04-27 13:55:36   继电器relay_2返回指令：FE 01 01 00 61 9C 
2021_04_27 2021-04-27 14:53:15   设备relay_2连接IP ：192.168.1.136 失败
2021_04_27 2021-04-27 14:53:18   继电器relay_2通信失败！
2021_04_27 2021-04-27 14:53:21   继电器relay_2返回指令：FE 01 01 00 61 9C 
2021_04_27 2021-04-27 14:53:25   继电器relay_2返回指令：FE 01 01 00 61 9C 
2021_04_27 2021-04-27 14:53:28   继电器relay_2返回指令：FE 01 01 00 61 9C 
2021_04_27 2021-04-27 14:53:31   继电器relay_2返回指令：FE 01 01 00 61 9C 
2021_04_27 2021-04-27 14:53:31   尝试[关闭]第9台供电
2021_04_27 2021-04-27 14:53:31   [关闭]第9台供电成功
2021_04_27 2021-04-27 14:53:32   尝试[开启]第9台供电
2021_04_27 2021-04-27 14:53:32   [开启]第9台供电成功
2021_04_27 2021-04-27 14:53:34   继电器relay_2返回指令：FE 05 00 00 00 00 D9 C5 FE 05 00 00 00 00 D9 C5 FE 05 00 00 FF 00 98 35 FE 05 00 00 FF 00 98 35 FE 01 01 01 A0 5C 
2021_04_27 2021-04-27 14:53:36   尝试[开启]第10台供电
2021_04_27 2021-04-27 14:53:36   [开启]第10台供电成功
2021_04_27 2021-04-27 14:53:37   尝试[开启]第11台供电
2021_04_27 2021-04-27 14:53:37   [开启]第11台供电成功
2021_04_27 2021-04-27 14:53:38   继电器relay_2返回指令：FE 05 00 01 FF 00 C9 F5 FE 05 00 01 FF 00 C9 F5 FE 05 00 02 FF 00 39 F5 FE 05 00 02 FF 00 39 F5 FE 01 01 07 20 5E 
2021_04_27 2021-04-27 14:53:41   继电器relay_2返回指令：FE 01 01 07 20 5E 
2021_04_27 2021-04-27 14:53:41   尝试[开启]第12台供电
2021_04_27 2021-04-27 14:53:41   [开启]第12台供电成功
2021_04_27 2021-04-27 14:53:42   尝试[开启]第13台供电
2021_04_27 2021-04-27 14:53:42   [开启]第13台供电成功
2021_04_27 2021-04-27 14:53:44   继电器relay_2返回指令：FE 05 00 03 FF 00 68 35 FE 05 00 03 FF 00 68 35 FE 05 00 04 FF 00 D9 F4 FE 05 00 04 FF 00 D9 F4 FE 01 01 1F 20 54 
2021_04_27 2021-04-27 14:53:47   继电器relay_2通信失败！
2021_04_27 2021-04-27 14:53:51   继电器relay_2通信失败！
2021_04_27 2021-04-27 14:53:54   继电器relay_2通信失败！
2021_04_27 2021-04-27 14:53:58   继电器relay_2通信失败！
2021_04_27 2021-04-27 14:54:01   继电器relay_2返回指令：FE 01 01 1F 20 54 
2021_04_27 2021-04-27 14:54:04   继电器relay_2返回指令：FE 01 01 1F 20 54 
2021_04_27 2021-04-27 14:54:08   继电器relay_2返回指令：FE 01 01 1F 20 54 
2021_04_27 2021-04-27 14:54:11   继电器relay_2返回指令：FE 01 01 1F 20 54 
2021_04_27 2021-04-27 14:54:14   继电器relay_2返回指令：FE 05 00 04 00 00 98 04 FE 05 00 04 00 00 98 04 FE 01 01 0F 21 98 
2021_04_27 2021-04-27 14:54:17   继电器relay_2返回指令：FE 05 00 03 00 00 29 C5 FE 05 00 03 00 00 29 C5 FE 01 01 07 20 5E FE 05 00 02 00 00 78 05 
2021_04_27 2021-04-27 14:54:20   继电器relay_2返回指令：FE 05 00 02 00 00 78 05 FE 01 01 03 21 9D FE 05 00 01 00 00 88 05 
2021_04_27 2021-04-27 14:54:24   继电器relay_2返回指令：FE 05 00 01 00 00 88 05 FE 05 00 00 00 00 D9 C5 FE 01 01 00 61 9C FE 05 00 00 00 00 D9 C5 
2021_04_27 2021-04-27 14:54:27   继电器relay_2返回指令：FE 01 01 00 61 9C 
2021_04_27 2021-04-27 14:54:30   继电器relay_2返回指令：FE 01 01 00 61 9C 
2021_04_27 2021-04-27 14:54:33   继电器relay_2返回指令：FE 05 00 05 00 00 C9 C4 FE 05 00 04 00 00 98 04 FE 01 01 00 61 9C 
2021_04_27 2021-04-27 14:54:36   继电器relay_2返回指令：FE 05 00 03 00 00 29 C5 FE 05 00 02 00 00 78 05 FE 05 00 01 00 00 88 05 FE 05 00 00 00 00 D9 C5 FE 01 01 00 61 9C 
2021_04_27 2021-04-27 14:54:40   继电器relay_2返回指令：FE 01 01 00 61 9C 
2021_04_27 2021-04-27 14:54:43   继电器relay_2返回指令：FE 01 01 00 61 9C 
2021_04_27 2021-04-27 14:54:46   继电器relay_2返回指令：FE 01 01 00 61 9C 
2021_04_27 2021-04-27 14:54:49   继电器relay_2返回指令：FE 01 01 00 61 9C 
2021_04_27 2021-04-27 15:03:37   设备relay_2连接IP ：192.168.1.136 失败
2021_04_27 2021-04-27 15:03:40   继电器relay_2通信失败！
2021_04_27 2021-04-27 15:03:43   继电器relay_2返回指令：FE 01 01 00 61 9C 
2021_04_27 2021-04-27 15:03:47   继电器relay_2返回指令：FE 01 01 00 61 9C 
2021_04_27 2021-04-27 15:03:50   继电器relay_2返回指令：FE 01 01 00 61 9C 
2021_04_27 2021-04-27 15:03:52   尝试[开启]第14台供电
2021_04_27 2021-04-27 15:03:52   [开启]第14台供电成功
2021_04_27 2021-04-27 15:03:53   继电器relay_2返回指令：FE 05 00 05 FF 00 88 34 FE 05 00 05 FF 00 88 34 FE 01 01 20 60 44 
2021_04_27 2021-04-27 15:03:55   尝试[开启]第10台供电
2021_04_27 2021-04-27 15:03:55   [开启]第10台供电成功
2021_04_27 2021-04-27 15:03:56   继电器relay_2返回指令：FE 05 00 01 FF 00 C9 F5 FE 05 00 01 FF 00 C9 F5 FE 01 01 22 E1 85 
2021_04_27 2021-04-27 15:03:59   继电器relay_2返回指令：FE 01 01 22 E1 85 
2021_04_27 2021-04-27 15:04:03   继电器relay_2返回指令：FE 01 01 22 E1 85 
2021_04_27 2021-04-27 15:04:06   继电器relay_2返回指令：FE 01 01 22 E1 85 
2021_04_27 2021-04-27 15:04:09   继电器relay_2返回指令：FE 01 01 22 E1 85 
2021_04_27 2021-04-27 15:04:12   继电器relay_2返回指令：FE 01 01 22 E1 85 
2021_04_27 2021-04-27 15:04:16   继电器relay_2返回指令：FE 05 00 05 00 00 C9 C4 FE 05 00 05 00 00 C9 C4 FE 01 01 02 E0 5D 
2021_04_27 2021-04-27 15:04:19   继电器relay_2返回指令：FE 05 00 01 00 00 88 05 FE 05 00 01 00 00 88 05 FE 01 01 00 61 9C 
2021_04_27 2021-04-27 15:04:22   继电器relay_2返回指令：FE 01 01 00 61 9C 
2021_04_27 2021-04-27 15:04:25   继电器relay_2返回指令：FE 01 01 00 61 9C 
2021_04_27 2021-04-27 16:32:13   初始化  设备relay_2连接IP ：192.168.1.136 失败
2021_04_27 2021-04-27 16:32:17   继电器relay_2通信失败！
2021_04_27 2021-04-27 16:32:20   继电器relay_2通信失败！
2021_04_27 2021-04-27 16:32:24   继电器relay_2通信失败！
2021_04_27 2021-04-27 16:32:28   继电器relay_2通信失败！
2021_04_27 2021-04-27 16:32:31   继电器relay_2通信失败！
2021_04_27 2021-04-27 16:32:34   继电器relay_2通信失败！
2021_04_27 2021-04-27 16:32:38   继电器relay_2通信失败！
2021_04_27 2021-04-27 16:32:41   继电器relay_2返回指令：FF FE 01 01 00 61 9C 
2021_04_27 2021-04-27 16:32:44   继电器relay_2返回指令：FE 01 01 00 61 9C 
2021_04_27 2021-04-27 16:32:48   继电器relay_2返回指令：FE 01 01 00 61 9C 
2021_04_27 2021-04-27 16:32:51   继电器relay_2返回指令：FE 01 01 00 61 9C 
2021_04_27 2021-04-27 16:32:54   继电器relay_2返回指令：FE 01 01 00 61 9C 
2021_04_27 2021-04-27 16:32:57   继电器relay_2返回指令：FE 01 01 00 61 9C 
2021_04_27 2021-04-27 16:33:00   继电器relay_2返回指令：FE 01 01 00 61 9C 
2021_04_27 2021-04-27 16:33:04   继电器relay_2返回指令：FE 01 01 00 61 9C 
2021_04_27 2021-04-27 16:33:07   继电器relay_2返回指令：FE 01 01 00 61 9C 
2021_04_27 2021-04-27 16:33:10   继电器relay_2返回指令：FE 01 01 00 61 9C 
2021_04_27 2021-04-27 16:33:13   继电器relay_2返回指令：FE 01 01 00 61 9C 
2021_04_27 2021-04-27 16:33:16   继电器relay_2返回指令：FE 01 01 00 61 9C 
2021_04_27 2021-04-27 16:33:20   继电器relay_2返回指令：FE 01 01 00 61 9C 
2021_04_27 2021-04-27 16:33:20   尝试[开启]第9台供电
2021_04_27 2021-04-27 16:33:20   [开启]第9台供电成功
2021_04_27 2021-04-27 16:33:20   尝试[开启]第10台供电
2021_04_27 2021-04-27 16:33:21   [开启]第10台供电成功
2021_04_27 2021-04-27 16:33:21   尝试[开启]第11台供电
2021_04_27 2021-04-27 16:33:21   [开启]第11台供电成功
2021_04_27 2021-04-27 16:33:21   尝试[开启]第12台供电
2021_04_27 2021-04-27 16:33:22   [开启]第12台供电成功
2021_04_27 2021-04-27 16:33:22   尝试[开启]第13台供电
2021_04_27 2021-04-27 16:33:22   [开启]第13台供电成功
2021_04_27 2021-04-27 16:33:23   继电器relay_2返回指令：FE 05 00 00 FF 00 98 35 FE 05 00 00 FF 00 98 35 FE 05 00 01 FF 00 C9 F5 FE 05 00 01 FF 00 C9 F5 FE 05 00 02 FF 00 39 F5 FE 05 00 02 FF 00 39 F5 FE 05 00 03 FF 00 68 35 FE 05 00 03 FF 00 68 35 FE 05 00 04 FF 00 D9 F4 FE 05 00 04 FF 00 D9 F4 FE 01 01 1F 20 54 
2021_04_27 2021-04-27 16:33:26   继电器relay_2返回指令：FE 01 01 1F 20 54 
2021_04_27 2021-04-27 16:33:29   继电器relay_2返回指令：FE 01 01 1F 20 54 
2021_04_27 2021-04-27 16:33:33   继电器relay_2返回指令：FE 01 01 1F 20 54 
2021_04_27 2021-04-27 16:33:36   继电器relay_2返回指令：FE 01 01 1F 20 54 
2021_04_27 2021-04-27 16:33:39   继电器relay_2返回指令：FE 01 01 1F 20 54 
2021_04_27 2021-04-27 16:33:42   继电器relay_2返回指令：FE 01 01 1F 20 54 
2021_04_27 2021-04-27 16:33:45   继电器relay_2返回指令：FE 01 01 1F 20 54 
2021_04_27 2021-04-27 16:33:49   继电器relay_2返回指令：FE 01 01 1F 20 54 
2021_04_27 2021-04-27 16:33:52   继电器relay_2返回指令：FE 01 01 1F 20 54 
2021_04_27 2021-04-27 16:33:55   继电器relay_2返回指令：FE 01 01 1F 20 54 
2021_04_27 2021-04-27 16:33:58   继电器relay_2返回指令：FE 01 01 1F 20 54 
2021_04_27 2021-04-27 16:34:01   继电器relay_2返回指令：FE 01 01 1F 20 54 
2021_04_27 2021-04-27 16:34:05   继电器relay_2返回指令：FE 01 01 1F 20 54 
2021_04_27 2021-04-27 16:34:08   继电器relay_2返回指令：FE 01 01 1F 20 54 
2021_04_27 2021-04-27 16:34:11   继电器relay_2返回指令：FE 01 01 1F 20 54 
2021_04_27 2021-04-27 16:34:14   继电器relay_2返回指令：FE 01 01 1F 20 54 
2021_04_27 2021-04-27 16:34:18   继电器relay_2返回指令：FE 05 00 04 00 00 98 04 FE 05 00 04 00 00 98 04 FE 01 01 0F 21 98 
2021_04_27 2021-04-27 16:34:21   继电器relay_2返回指令：FE 05 00 03 00 00 29 C5 FE 05 00 03 00 00 29 C5 FE 01 01 07 20 5E 
2021_04_27 2021-04-27 16:34:24   继电器relay_2返回指令：FE 05 00 02 00 00 78 05 FE 05 00 02 00 00 78 05 FE 01 01 03 21 9D FE 05 00 01 00 00 88 05 
2021_04_27 2021-04-27 16:34:27   继电器relay_2返回指令：FE 05 00 01 00 00 88 05 FE 01 01 01 A0 5C 
2021_04_27 2021-04-27 16:34:30   继电器relay_2返回指令：FE 05 00 00 00 00 D9 C5 FE 05 00 00 00 00 D9 C5 FE 01 01 00 61 9C 
2021_04_27 2021-04-27 16:34:34   继电器relay_2返回指令：FE 01 01 00 61 9C 
2021_04_27 2021-04-27 16:34:37   继电器relay_2返回指令：FE 01 01 00 61 9C FE 05 00 05 00 00 C9 C4 
2021_04_27 2021-04-27 16:34:40   继电器relay_2返回指令：FE 01 01 00 61 9C 
