2021_06_15 2021-06-15 14:45:58   初始化  设备relay_2连接IP ：192.168.1.136 成功
2021_06_15 2021-06-15 14:46:00   尝试[开启]第10台供电
2021_06_15 2021-06-15 14:46:00   [开启]第10台供电成功
2021_06_15 2021-06-15 14:46:02   尝试[关闭]第10台供电
2021_06_15 2021-06-15 14:46:02   [关闭]第10台供电成功
2021_06_15 2021-06-15 14:46:02   尝试[开启]第11台供电
2021_06_15 2021-06-15 14:46:02   [开启]第11台供电失败
2021_06_15 2021-06-15 14:46:03   尝试[开启]第11台供电
2021_06_15 2021-06-15 14:46:03   [开启]第11台供电失败
2021_06_15 2021-06-15 14:46:04   尝试[开启]第11台供电
2021_06_15 2021-06-15 14:46:04   [开启]第11台供电失败
2021_06_15 2021-06-15 14:46:06   尝试[开启]第11台供电
2021_06_15 2021-06-15 14:46:06   [开启]第11台供电成功
2021_06_15 2021-06-15 14:46:08   尝试[开启]第11台供电
2021_06_15 2021-06-15 14:46:08   [开启]第11台供电成功
2021_06_15 2021-06-15 14:46:09   尝试[关闭]第11台供电
2021_06_15 2021-06-15 14:46:10   [关闭]第11台供电失败
2021_06_15 2021-06-15 14:46:10   尝试[关闭]第11台供电
2021_06_15 2021-06-15 14:46:10   [关闭]第11台供电成功
2021_06_15 2021-06-15 14:46:17   继电器relay_2通信失败！
2021_06_15 2021-06-15 14:46:23   继电器relay_2通信失败！
2021_06_15 2021-06-15 14:46:29   继电器relay_2通信失败！
2021_06_15 2021-06-15 14:46:33   尝试[开启]第10台供电
2021_06_15 2021-06-15 14:46:33   [开启]第10台供电成功
2021_06_15 2021-06-15 14:46:35   尝试[关闭]第10台供电
2021_06_15 2021-06-15 14:46:35   [关闭]第10台供电失败
2021_06_15 2021-06-15 14:46:37   初始化  设备relay_2连接IP ：192.168.1.136 成功
2021_06_15 2021-06-15 14:46:41   继电器relay_2通信失败！
2021_06_15 2021-06-15 14:46:43   尝试[开启]第9台供电
2021_06_15 2021-06-15 14:46:43   [开启]第9台供电失败
2021_06_15 2021-06-15 14:46:43   尝试[开启]第9台供电
2021_06_15 2021-06-15 14:46:43   [开启]第9台供电失败
2021_06_15 2021-06-15 14:46:44   尝试[开启]第9台供电
2021_06_15 2021-06-15 14:46:44   [开启]第9台供电成功
2021_06_15 2021-06-15 14:46:45   尝试[关闭]第9台供电
2021_06_15 2021-06-15 14:46:45   [关闭]第9台供电失败
2021_06_15 2021-06-15 14:46:47   尝试[关闭]第9台供电
2021_06_15 2021-06-15 14:46:47   [关闭]第9台供电成功
2021_06_15 2021-06-15 14:46:48   尝试[开启]第10台供电
2021_06_15 2021-06-15 14:46:48   [开启]第10台供电失败
2021_06_15 2021-06-15 14:46:49   尝试[开启]第10台供电
2021_06_15 2021-06-15 14:46:49   [开启]第10台供电失败
2021_06_15 2021-06-15 14:46:49   尝试[开启]第10台供电
2021_06_15 2021-06-15 14:46:49   [开启]第10台供电失败
2021_06_15 2021-06-15 14:46:50   尝试[开启]第10台供电
2021_06_15 2021-06-15 14:46:50   [开启]第10台供电失败
2021_06_15 2021-06-15 14:46:50   尝试[开启]第10台供电
2021_06_15 2021-06-15 14:46:51   [开启]第10台供电成功
2021_06_15 2021-06-15 14:46:51   尝试[开启]第10台供电
2021_06_15 2021-06-15 14:46:51   [开启]第10台供电失败
2021_06_15 2021-06-15 14:46:52   尝试[开启]第10台供电
2021_06_15 2021-06-15 14:46:52   [开启]第10台供电失败
2021_06_15 2021-06-15 14:46:52   尝试[开启]第10台供电
2021_06_15 2021-06-15 14:46:52   [开启]第10台供电失败
2021_06_15 2021-06-15 14:46:53   尝试[开启]第11台供电
2021_06_15 2021-06-15 14:46:53   [开启]第11台供电失败
2021_06_15 2021-06-15 14:46:53   尝试[开启]第11台供电
2021_06_15 2021-06-15 14:46:53   [开启]第11台供电成功
2021_06_15 2021-06-15 14:46:55   尝试[开启]第11台供电
2021_06_15 2021-06-15 14:46:55   [开启]第11台供电失败
2021_06_15 2021-06-15 14:48:11   初始化  设备relay_2连接IP ：192.168.1.136 成功
2021_06_15 2021-06-15 14:48:14   继电器relay_2通信失败！
2021_06_15 2021-06-15 14:48:21   继电器relay_2通信失败！
2021_06_15 2021-06-15 14:48:27   继电器relay_2通信失败！
2021_06_15 2021-06-15 14:48:34   继电器relay_2通信失败！
2021_06_15 2021-06-15 14:48:38   尝试[开启]第9台供电
2021_06_15 2021-06-15 14:48:38   [开启]第9台供电成功
2021_06_15 2021-06-15 14:48:39   尝试[关闭]第9台供电
2021_06_15 2021-06-15 14:48:39   [关闭]第9台供电失败
2021_06_15 2021-06-15 14:48:40   尝试[关闭]第9台供电
2021_06_15 2021-06-15 14:48:41   [关闭]第9台供电成功
2021_06_15 2021-06-15 14:48:41   尝试[开启]第10台供电
2021_06_15 2021-06-15 14:48:41   [开启]第10台供电失败
2021_06_15 2021-06-15 14:48:42   尝试[关闭]第10台供电
2021_06_15 2021-06-15 14:48:42   [关闭]第10台供电失败
2021_06_15 2021-06-15 14:48:43   尝试[关闭]第10台供电
2021_06_15 2021-06-15 14:48:43   [关闭]第10台供电失败
2021_06_15 2021-06-15 14:48:43   尝试[关闭]第10台供电
2021_06_15 2021-06-15 14:48:44   [关闭]第10台供电成功
2021_06_15 2021-06-15 14:48:44   尝试[开启]第11台供电
2021_06_15 2021-06-15 14:48:44   [开启]第11台供电失败
2021_06_15 2021-06-15 14:48:45   尝试[开启]第12台供电
2021_06_15 2021-06-15 14:48:45   [开启]第12台供电失败
2021_06_15 2021-06-15 14:48:47   尝试[开启]第13台供电
2021_06_15 2021-06-15 14:48:47   [开启]第13台供电成功
2021_06_15 2021-06-15 14:48:47   尝试[关闭]第13台供电
2021_06_15 2021-06-15 14:48:47   [关闭]第13台供电失败
2021_06_15 2021-06-15 14:48:48   尝试[关闭]第13台供电
2021_06_15 2021-06-15 14:48:48   [关闭]第13台供电失败
2021_06_15 2021-06-15 14:48:49   尝试[关闭]第13台供电
2021_06_15 2021-06-15 14:48:49   [关闭]第13台供电失败
2021_06_15 2021-06-15 14:48:49   尝试[开启]第13台供电
2021_06_15 2021-06-15 14:48:50   [开启]第13台供电成功
2021_06_15 2021-06-15 14:48:50   尝试[开启]第13台供电
2021_06_15 2021-06-15 14:48:51   [开启]第13台供电失败
2021_06_15 2021-06-15 14:48:56   继电器relay_2通信失败！
2021_06_15 2021-06-15 14:51:01   初始化  设备relay_2连接IP ：192.168.1.136 成功
2021_06_15 2021-06-15 14:51:04   继电器relay_2通信失败！
2021_06_15 2021-06-15 14:53:06   初始化  设备relay_2连接IP ：192.168.1.136 成功
2021_06_15 2021-06-15 14:53:29   初始化  设备relay_2连接IP ：192.168.1.136 成功
2021_06_15 2021-06-15 14:53:32   继电器relay_2通信失败！
2021_06_15 2021-06-15 14:53:38   继电器relay_2通信失败！
2021_06_15 2021-06-15 15:09:35   初始化  设备relay_2连接IP ：192.168.1.136 成功
2021_06_15 2021-06-15 15:09:38   尝试[开启]第10台供电
2021_06_15 2021-06-15 15:09:38   [开启]第10台供电成功
2021_06_15 2021-06-15 15:09:40   尝试[关闭]第10台供电
2021_06_15 2021-06-15 15:09:40   [关闭]第10台供电成功
2021_06_15 2021-06-15 15:09:41   尝试[开启]第11台供电
2021_06_15 2021-06-15 15:09:41   [开启]第11台供电失败
2021_06_15 2021-06-15 15:09:45   继电器relay_2通信失败！
2021_06_15 2021-06-15 15:09:46   尝试[开启]第9台供电
2021_06_15 2021-06-15 15:09:46   [开启]第9台供电失败
2021_06_15 2021-06-15 15:10:25   初始化  设备relay_2连接IP ：192.168.1.136 成功
2021_06_15 2021-06-15 15:10:28   继电器relay_2通信失败！
2021_06_15 2021-06-15 15:10:35   继电器relay_2通信失败！
2021_06_15 2021-06-15 15:10:41   继电器relay_2通信失败！
2021_06_15 2021-06-15 15:10:48   继电器relay_2通信失败！
2021_06_15 2021-06-15 15:10:54   继电器relay_2通信失败！
2021_06_15 2021-06-15 15:10:59   尝试[开启]第10台供电
2021_06_15 2021-06-15 15:10:59   [开启]第10台供电成功
2021_06_15 2021-06-15 15:11:00   尝试[关闭]第10台供电
2021_06_15 2021-06-15 15:11:00   [关闭]第10台供电失败
2021_06_15 2021-06-15 15:11:01   尝试[关闭]第10台供电
2021_06_15 2021-06-15 15:11:01   [关闭]第10台供电成功
2021_06_15 2021-06-15 15:14:45   初始化  设备relay_2连接IP ：192.168.1.136 成功
2021_06_15 2021-06-15 15:15:25   初始化  设备relay_2连接IP ：192.168.1.136 成功
2021_06_15 2021-06-15 15:15:28   继电器relay_2通信失败！
2021_06_15 2021-06-15 15:15:35   继电器relay_2通信失败！
2021_06_15 2021-06-15 15:21:11   初始化  设备relay_2连接IP ：192.168.1.136 成功
2021_06_15 2021-06-15 15:21:14   尝试[开启]第10台供电
2021_06_15 2021-06-15 15:21:14   [开启]第10台供电成功
2021_06_15 2021-06-15 15:21:17   尝试[关闭]第10台供电
2021_06_15 2021-06-15 15:21:17   [关闭]第10台供电成功
2021_06_15 2021-06-15 15:21:21   继电器relay_2通信失败！
2021_06_15 2021-06-15 15:21:30   继电器relay_2通信失败！
2021_06_15 2021-06-15 15:23:41   初始化  设备relay_2连接IP ：192.168.1.136 成功
2021_06_15 2021-06-15 15:23:44   继电器relay_2通信失败！
2021_06_15 2021-06-15 15:37:18   初始化  设备relay_2连接IP ：192.168.1.136 成功
2021_06_15 2021-06-15 15:37:21   继电器relay_2返回指令：FE 01 01 00 61 9C FE 01 01 00 61 9C 
2021_06_15 2021-06-15 15:37:24   继电器relay_2返回指令：FE 01 01 00 61 9C FE 01 01 00 61 9C 
2021_06_15 2021-06-15 15:37:24   尝试[开启]第9台供电
2021_06_15 2021-06-15 15:37:24   [开启]第9台供电成功
2021_06_15 2021-06-15 15:37:25   尝试[关闭]第9台供电
2021_06_15 2021-06-15 15:37:25   [关闭]第9台供电成功
2021_06_15 2021-06-15 15:37:26   尝试[开启]第10台供电
2021_06_15 2021-06-15 15:37:26   [开启]第10台供电成功
2021_06_15 2021-06-15 15:37:27   继电器relay_2返回指令：FE 05 00 00 00 00 D9 C5 FE 05 00 00 00 00 D9 C5 FE 05 00 01 FF 00 C9 F5 FE 05 00 01 FF 00 C9 F5 FE 01 01 02 E0 5D FE 01 01 02 E0 5D 
2021_06_15 2021-06-15 15:37:27   尝试[开启]第9台供电
2021_06_15 2021-06-15 15:37:27   [开启]第9台供电成功
2021_06_15 2021-06-15 15:37:28   尝试[开启]第11台供电
2021_06_15 2021-06-15 15:37:29   [开启]第11台供电成功
2021_06_15 2021-06-15 15:37:31   继电器relay_2返回指令：FE 05 00 00 FF 00 98 35 FE 05 00 00 FF 00 98 35 FE 05 00 02 FF 00 39 F5 FE 05 00 02 FF 00 39 F5 FE 01 01 07 20 5E FE 01 01 07 20 5E 
2021_06_15 2021-06-15 15:37:34   继电器relay_2返回指令：FE 01 01 07 20 5E FE 01 01 07 20 5E 
2021_06_15 2021-06-15 15:37:37   继电器relay_2返回指令：FE 01 01 07 20 5E FE 01 01 07 20 5E 
2021_06_15 2021-06-15 15:37:40   继电器relay_2返回指令：FE 05 00 02 00 00 78 05 FE 05 00 02 00 00 78 05 FE 01 01 03 21 9D FE 01 01 03 21 9D 
2021_06_15 2021-06-15 15:37:44   继电器relay_2返回指令：FE 05 00 01 00 00 88 05 FE 05 00 01 00 00 88 05 FE 01 01 01 A0 5C FE 01 01 01 A0 5C 
2021_06_15 2021-06-15 15:37:47   继电器relay_2返回指令：FE 05 00 00 00 00 D9 C5 FE 05 00 00 00 00 D9 C5 FE 01 01 00 61 9C FE 01 01 00 61 9C 
2021_06_15 2021-06-15 15:37:50   继电器relay_2返回指令：FE 01 01 00 61 9C FE 05 00 05 00 00 C9 C4 
2021_06_15 2021-06-15 15:37:54   继电器relay_2返回指令：FE 01 01 00 61 9C FE 01 01 00 61 9C 
2021_06_15 2021-06-15 15:37:57   继电器relay_2返回指令：FE 01 01 00 61 9C FE 01 01 00 61 9C 
2021_06_15 2021-06-15 15:38:00   继电器relay_2返回指令：FE 01 01 00 61 9C FE 01 01 00 61 9C 
2021_06_15 2021-06-15 15:38:03   继电器relay_2返回指令：FE 01 01 00 61 9C FE 01 01 00 61 9C 
2021_06_15 2021-06-15 15:38:07   继电器relay_2返回指令：FE 01 01 00 61 9C FE 01 01 00 61 9C 
2021_06_15 2021-06-15 15:38:10   继电器relay_2返回指令：FE 01 01 00 61 9C FE 01 01 00 61 9C 
2021_06_15 2021-06-15 15:38:13   继电器relay_2返回指令：FE 01 01 00 61 9C FE 01 01 00 61 9C 
2021_06_15 2021-06-15 15:38:16   继电器relay_2返回指令：FE 01 01 00 61 9C FE 01 01 00 61 9C 
2021_06_15 2021-06-15 15:38:20   继电器relay_2返回指令：FE 01 01 00 61 9C FE 01 01 00 61 9C 
2021_06_15 2021-06-15 15:38:23   继电器relay_2返回指令：FE 01 01 00 61 9C FE 01 01 00 61 9C 
2021_06_15 2021-06-15 15:38:26   继电器relay_2返回指令：FE 01 01 00 61 9C FE 01 01 00 61 9C 
2021_06_15 2021-06-15 15:38:30   继电器relay_2返回指令：FE 01 01 00 61 9C FE 01 01 00 61 9C 
2021_06_15 2021-06-15 15:38:33   继电器relay_2返回指令：FE 01 01 00 61 9C FE 01 01 00 61 9C 
2021_06_15 2021-06-15 15:38:36   继电器relay_2返回指令：FE 01 01 00 61 9C FE 01 01 00 61 9C 
2021_06_15 2021-06-15 15:38:39   继电器relay_2返回指令：FE 01 01 00 61 9C FE 01 01 00 61 9C 
2021_06_15 2021-06-15 15:38:43   继电器relay_2返回指令：FE 01 01 00 61 9C FE 01 01 00 61 9C 
2021_06_15 2021-06-15 15:38:46   继电器relay_2返回指令：FE 01 01 00 61 9C FE 01 01 00 61 9C 
2021_06_15 2021-06-15 15:38:49   继电器relay_2返回指令：FE 01 01 00 61 9C FE 01 01 00 61 9C 
2021_06_15 2021-06-15 15:38:52   继电器relay_2返回指令：FE 01 01 00 61 9C FE 01 01 00 61 9C 
2021_06_15 2021-06-15 15:38:56   继电器relay_2返回指令：FE 01 01 00 61 9C FE 01 01 00 61 9C 
2021_06_15 2021-06-15 15:38:57   尝试[开启]第9台供电
2021_06_15 2021-06-15 15:38:58   [开启]第9台供电成功
2021_06_15 2021-06-15 15:38:58   尝试[关闭]第10台供电
2021_06_15 2021-06-15 15:38:59   [关闭]第10台供电成功
2021_06_15 2021-06-15 15:38:59   继电器relay_2返回指令：FE 05 00 00 FF 00 98 35 FE 05 00 00 FF 00 98 35 FE 05 00 01 00 00 88 05 FE 05 00 01 00 00 88 05 FE 01 01 01 A0 5C FE 01 01 01 A0 5C 
2021_06_15 2021-06-15 15:38:59   尝试[开启]第10台供电
2021_06_15 2021-06-15 15:38:59   [开启]第10台供电成功
2021_06_15 2021-06-15 15:39:00   尝试[开启]第11台供电
2021_06_15 2021-06-15 15:39:00   [开启]第11台供电成功
2021_06_15 2021-06-15 15:39:01   尝试[开启]第12台供电
2021_06_15 2021-06-15 15:39:01   [开启]第12台供电成功
2021_06_15 2021-06-15 15:39:02   继电器relay_2返回指令：FE 05 00 01 FF 00 C9 F5 FE 05 00 01 FF 00 C9 F5 FE 05 00 02 FF 00 39 F5 FE 05 00 02 FF 00 39 F5 FE 05 00 03 FF 00 68 35 FE 05 00 03 FF 00 68 35 FE 01 01 0F 21 98 FE 01 01 0F 21 98 
2021_06_15 2021-06-15 15:39:06   继电器relay_2返回指令：FE 01 01 0F 21 98 FE 01 01 0F 21 98 
2021_06_15 2021-06-15 15:39:09   继电器relay_2返回指令：FE 01 01 0F 21 98 FE 01 01 0F 21 98 
2021_06_15 2021-06-15 15:39:12   继电器relay_2返回指令：FE 01 01 0F 21 98 FE 01 01 0F 21 98 
2021_06_15 2021-06-15 15:39:15   继电器relay_2返回指令：FE 05 00 03 00 00 29 C5 FE 05 00 03 00 00 29 C5 FE 01 01 07 20 5E FE 01 01 07 20 5E 
2021_06_15 2021-06-15 15:39:19   继电器relay_2返回指令：FE 05 00 02 00 00 78 05 FE 05 00 02 00 00 78 05 FE 01 01 03 21 9D FE 01 01 03 21 9D 
2021_06_15 2021-06-15 15:39:22   继电器relay_2返回指令：FE 05 00 01 00 00 88 05 FE 05 00 01 00 00 88 05 FE 01 01 01 A0 5C FE 01 01 01 A0 5C 
2021_06_15 2021-06-15 15:39:25   继电器relay_2返回指令：FE 05 00 00 00 00 D9 C5 FE 05 00 00 00 00 D9 C5 FE 01 01 00 61 9C FE 01 01 00 61 9C 
2021_06_15 2021-06-15 15:39:28   继电器relay_2返回指令：FE 01 01 00 61 9C FE 01 01 00 61 9C 
2021_06_15 2021-06-15 15:39:32   继电器relay_2返回指令：FE 01 01 00 61 9C FE 01 01 00 61 9C 
2021_06_15 2021-06-15 15:39:35   继电器relay_2返回指令：FE 05 00 05 00 00 C9 C4 FE 01 01 00 61 9C FE 01 01 00 61 9C 
