2021_05_06 2021-05-06 13:45:14   初始化  设备relay_2连接IP ：192.168.1.136 成功
2021_05_06 2021-05-06 13:45:17   继电器relay_2通信失败！
2021_05_06 2021-05-06 13:45:20   继电器relay_2通信失败！
2021_05_06 2021-05-06 13:45:24   继电器relay_2通信失败！
2021_05_06 2021-05-06 13:45:49   初始化  设备relay_2连接IP ：192.168.1.136 成功
2021_05_06 2021-05-06 13:45:52   继电器relay_2通信失败！
2021_05_06 2021-05-06 13:45:55   继电器relay_2通信失败！
2021_05_06 2021-05-06 13:45:59   继电器relay_2通信失败！
2021_05_06 2021-05-06 13:46:02   继电器relay_2通信失败！
2021_05_06 2021-05-06 13:46:05   继电器relay_2返回指令：FE 01 01 00 61 9C 
2021_05_06 2021-05-06 13:46:09   继电器relay_2返回指令：FE 01 01 00 61 9C 
2021_05_06 2021-05-06 13:46:12   继电器relay_2返回指令：FE 01 01 00 61 9C 
2021_05_06 2021-05-06 13:46:15   继电器relay_2返回指令：FE 01 01 00 61 9C 
2021_05_06 2021-05-06 13:46:18   继电器relay_2返回指令：FE 01 01 00 61 9C 
2021_05_06 2021-05-06 13:46:22   继电器relay_2返回指令：FE 01 01 00 61 9C 
2021_05_06 2021-05-06 13:46:25   继电器relay_2返回指令：FE 01 01 00 61 9C 
2021_05_06 2021-05-06 13:46:28   继电器relay_2返回指令：FE 01 01 00 61 9C 
2021_05_06 2021-05-06 13:46:31   继电器relay_2返回指令：FE 01 01 00 61 9C 
2021_05_06 2021-05-06 13:46:34   继电器relay_2返回指令：FE 01 01 00 61 9C 
2021_05_06 2021-05-06 13:46:38   继电器relay_2返回指令：FE 01 01 00 61 9C 
2021_05_06 2021-05-06 13:46:41   继电器relay_2返回指令：FE 01 01 00 61 9C 
2021_05_06 2021-05-06 13:46:44   继电器relay_2返回指令：FE 01 01 00 61 9C 
2021_05_06 2021-05-06 13:46:44   尝试[开启]第9台供电
2021_05_06 2021-05-06 13:46:44   [开启]第9台供电成功
2021_05_06 2021-05-06 13:46:46   尝试[开启]第10台供电
2021_05_06 2021-05-06 13:46:46   [开启]第10台供电成功
2021_05_06 2021-05-06 13:46:47   继电器relay_2返回指令：FE 05 00 00 FF 00 98 35 FE 05 00 00 FF 00 98 35 FE 05 00 01 FF 00 C9 F5 FE 05 00 01 FF 00 C9 F5 FE 01 01 03 21 9D 
2021_05_06 2021-05-06 13:46:51   继电器relay_2返回指令：FE 01 01 03 21 9D 
2021_05_06 2021-05-06 13:46:54   继电器relay_2返回指令：FE 01 01 03 21 9D 
2021_05_06 2021-05-06 13:46:57   继电器relay_2返回指令：FE 01 01 03 21 9D 
2021_05_06 2021-05-06 13:47:00   继电器relay_2返回指令：FE 01 01 03 21 9D 
2021_05_06 2021-05-06 13:47:03   继电器relay_2返回指令：FE 01 01 03 21 9D 
2021_05_06 2021-05-06 13:47:07   继电器relay_2返回指令：FE 01 01 03 21 9D 
2021_05_06 2021-05-06 13:47:10   继电器relay_2返回指令：FE 01 01 03 21 9D 
2021_05_06 2021-05-06 13:47:13   继电器relay_2返回指令：FE 01 01 03 21 9D 
2021_05_06 2021-05-06 13:47:16   继电器relay_2返回指令：FE 01 01 03 21 9D 
2021_05_06 2021-05-06 13:47:19   继电器relay_2返回指令：FE 01 01 03 21 9D 
2021_05_06 2021-05-06 13:47:23   继电器relay_2返回指令：FE 01 01 03 21 9D 
2021_05_06 2021-05-06 13:47:26   继电器relay_2返回指令：FE 01 01 03 21 9D 
2021_05_06 2021-05-06 13:47:29   继电器relay_2返回指令：FE 01 01 03 21 9D 
2021_05_06 2021-05-06 13:47:32   继电器relay_2返回指令：FE 01 01 03 21 9D 
2021_05_06 2021-05-06 13:47:35   继电器relay_2返回指令：FE 05 00 01 00 00 88 05 FE 05 00 00 00 00 D9 C5 FE 05 00 05 00 00 C9 C4 FE 05 00 04 00 00 98 04 FE 01 01 00 61 9C 
2021_05_06 2021-05-06 13:47:39   继电器relay_2返回指令：FE 01 01 00 61 9C 
2021_05_06 2021-05-06 13:47:42   继电器relay_2返回指令：FE 01 01 00 61 9C 
