2021_06_07 2021-06-07 14:38:42   初始化  设备relay_2连接IP ：192.168.1.136 失败
2021_06_07 2021-06-07 14:38:45   继电器relay_2通信失败！
2021_06_07 2021-06-07 14:42:33   初始化  设备relay_2连接IP ：192.168.1.136 成功
2021_06_07 2021-06-07 14:42:36   继电器relay_2返回指令：FE 01 01 00 61 9C 
2021_06_07 2021-06-07 14:43:02   初始化  设备relay_2连接IP ：192.168.1.136 成功
2021_06_07 2021-06-07 14:43:06   继电器relay_2返回指令：FE 01 01 00 61 9C 
2021_06_07 2021-06-07 14:44:11   初始化  设备relay_2连接IP ：192.168.1.136 成功
2021_06_07 2021-06-07 14:44:14   继电器relay_2返回指令：FE 01 01 00 61 9C 
2021_06_07 2021-06-07 14:45:11   初始化  设备relay_2连接IP ：192.168.1.136 成功
2021_06_07 2021-06-07 14:48:14   初始化  设备relay_2连接IP ：192.168.1.136 成功
2021_06_07 2021-06-07 14:48:17   继电器relay_2返回指令：FE 01 01 00 61 9C 
2021_06_07 2021-06-07 14:48:20   继电器relay_2返回指令：FE 01 01 00 61 9C 
2021_06_07 2021-06-07 14:48:23   继电器relay_2返回指令：FE 01 01 00 61 9C 
2021_06_07 2021-06-07 14:48:27   继电器relay_2返回指令：FE 01 01 00 61 9C 
2021_06_07 2021-06-07 14:48:30   继电器relay_2返回指令：FE 01 01 00 61 9C 
2021_06_07 2021-06-07 14:48:31   
[全开中……]尝试开启第9台设备

2021_06_07 2021-06-07 14:48:31   [一键全开]第9台成功
2021_06_07 2021-06-07 14:48:32   
[全开中……]尝试开启第10台设备

2021_06_07 2021-06-07 14:48:32   [一键全开]第10台成功
2021_06_07 2021-06-07 14:48:33   继电器relay_2返回指令：FE 05 00 00 FF 00 98 35 FE 05 00 00 FF 00 98 35 FE 05 00 01 FF 00 C9 F5 FE 05 00 01 FF 00 C9 F5 FE 01 01 03 21 9D 
2021_06_07 2021-06-07 14:48:34   
[全开中……]尝试开启第11台设备

2021_06_07 2021-06-07 14:48:34   [一键全开]第11台成功
2021_06_07 2021-06-07 14:48:35   
[全开中……]尝试开启第12台设备

2021_06_07 2021-06-07 14:48:36   [一键全开]第12台成功
2021_06_07 2021-06-07 14:48:36   继电器relay_2返回指令：FE 05 00 02 FF 00 39 F5 FE 05 00 02 FF 00 39 F5 FE 05 00 03 FF 00 68 35 FE 05 00 03 FF 00 68 35 FE 01 01 0F 21 98 
2021_06_07 2021-06-07 14:48:37   
[全开中……]尝试开启第13台设备

2021_06_07 2021-06-07 14:48:37   [一键全开]第13台成功
2021_06_07 2021-06-07 14:48:39   
[全开中……]尝试开启第14台设备

2021_06_07 2021-06-07 14:48:39   [一键全开]第14台成功
2021_06_07 2021-06-07 14:48:39   继电器relay_2返回指令：FE 05 00 04 FF 00 D9 F4 FE 05 00 04 FF 00 D9 F4 FE 05 00 05 FF 00 88 34 FE 05 00 05 FF 00 88 34 FE 01 01 3F 21 8C 
2021_06_07 2021-06-07 14:48:43   继电器relay_2返回指令：FE 01 01 3F 21 8C 
2021_06_07 2021-06-07 14:48:46   继电器relay_2返回指令：FE 01 01 3F 21 8C 
2021_06_07 2021-06-07 14:48:49   继电器relay_2返回指令：FE 01 01 3F 21 8C 
2021_06_07 2021-06-07 14:48:52   继电器relay_2返回指令：FE 01 01 3F 21 8C 
2021_06_07 2021-06-07 14:48:55   继电器relay_2返回指令：FE 01 01 3F 21 8C 
2021_06_07 2021-06-07 14:48:59   继电器relay_2返回指令：FE 01 01 3F 21 8C 
2021_06_07 2021-06-07 14:49:02   继电器relay_2返回指令：FE 01 01 3F 21 8C 
2021_06_07 2021-06-07 14:49:05   继电器relay_2返回指令：FE 01 01 3F 21 8C 
2021_06_07 2021-06-07 14:49:08   继电器relay_2返回指令：FE 05 00 05 00 00 C9 C4 FE 05 00 05 00 00 C9 C4 FE 01 01 1F 20 54 
2021_06_07 2021-06-07 14:49:12   继电器relay_2返回指令：FE 05 00 04 00 00 98 04 FE 05 00 04 00 00 98 04 FE 01 01 0F 21 98 
2021_06_07 2021-06-07 14:49:15   继电器relay_2返回指令：FE 05 00 03 00 00 29 C5 FE 05 00 03 00 00 29 C5 FE 01 01 07 20 5E 
2021_06_07 2021-06-07 14:49:18   继电器relay_2返回指令：FE 05 00 02 00 00 78 05 FE 05 00 02 00 00 78 05 FE 01 01 03 21 9D 
2021_06_07 2021-06-07 14:49:21   继电器relay_2返回指令：FE 05 00 01 00 00 88 05 FE 05 00 01 00 00 88 05 FE 01 01 01 A0 5C 
2021_06_07 2021-06-07 14:49:24   继电器relay_2返回指令：FE 05 00 00 00 00 D9 C5 FE 05 00 00 00 00 D9 C5 FE 01 01 00 61 9C 
2021_06_07 2021-06-07 14:49:28   继电器relay_2返回指令：FE 01 01 00 61 9C 
2021_06_07 2021-06-07 14:49:31   继电器relay_2返回指令：FE 01 01 00 61 9C 
2021_06_07 2021-06-07 14:49:34   继电器relay_2返回指令：FE 01 01 00 61 9C 
2021_06_07 2021-06-07 14:49:37   继电器relay_2返回指令：FE 01 01 00 61 9C 
2021_06_07 2021-06-07 14:49:40   继电器relay_2返回指令：FE 01 01 00 61 9C 
2021_06_07 2021-06-07 14:49:44   继电器relay_2返回指令：FE 01 01 00 61 9C 
2021_06_07 2021-06-07 14:49:47   继电器relay_2返回指令：FE 01 01 00 61 9C 
2021_06_07 2021-06-07 14:49:50   继电器relay_2返回指令：FE 05 00 05 00 00 C9 C4 FE 05 00 04 00 00 98 04 FE 01 01 00 61 9C 
2021_06_07 2021-06-07 14:49:53   继电器relay_2返回指令：FE 01 01 00 61 9C 
2021_06_07 2021-06-07 14:54:07   初始化  设备relay_2连接IP ：192.168.1.136 成功
2021_06_07 2021-06-07 14:54:10   继电器relay_2返回指令：FE 01 01 00 61 9C 
2021_06_07 2021-06-07 14:54:14   继电器relay_2返回指令：FE 01 01 00 61 9C 
2021_06_07 2021-06-07 14:54:17   继电器relay_2返回指令：FE 01 01 00 61 9C 
2021_06_07 2021-06-07 14:54:20   继电器relay_2返回指令：FE 01 01 00 61 9C 
2021_06_07 2021-06-07 14:54:22   
[全开中……]尝试开启第9台设备

2021_06_07 2021-06-07 14:54:22   [一键全开]第9台成功
2021_06_07 2021-06-07 14:54:23   继电器relay_2返回指令：FE 05 00 00 FF 00 98 35 FE 05 00 00 FF 00 98 35 FE 01 01 01 A0 5C 
2021_06_07 2021-06-07 14:54:24   
[全开中……]尝试开启第10台设备

2021_06_07 2021-06-07 14:54:24   [一键全开]第10台成功
2021_06_07 2021-06-07 14:54:25   
[全开中……]尝试开启第11台设备

2021_06_07 2021-06-07 14:54:25   [一键全开]第11台成功
2021_06_07 2021-06-07 14:54:26   继电器relay_2返回指令：FE 05 00 01 FF 00 C9 F5 FE 05 00 01 FF 00 C9 F5 FE 05 00 02 FF 00 39 F5 FE 05 00 02 FF 00 39 F5 FE 01 01 07 20 5E 
2021_06_07 2021-06-07 14:54:27   
[全开中……]尝试开启第12台设备

2021_06_07 2021-06-07 14:54:27   [一键全开]第12台成功
2021_06_07 2021-06-07 14:54:28   
[全开中……]尝试开启第13台设备

2021_06_07 2021-06-07 14:54:29   [一键全开]第13台成功
2021_06_07 2021-06-07 14:54:30   继电器relay_2返回指令：FE 05 00 03 FF 00 68 35 FE 05 00 03 FF 00 68 35 FE 05 00 04 FF 00 D9 F4 FE 05 00 04 FF 00 D9 F4 FE 01 01 1F 20 54 
2021_06_07 2021-06-07 14:54:30   
[全开中……]尝试开启第14台设备

2021_06_07 2021-06-07 14:54:30   [一键全开]第14台成功
2021_06_07 2021-06-07 14:54:33   继电器relay_2返回指令：FE 05 00 05 FF 00 88 34 FE 05 00 05 FF 00 88 34 FE 01 01 3F 21 8C 
2021_06_07 2021-06-07 14:54:36   继电器relay_2返回指令：FE 01 01 3F 21 8C 
2021_06_07 2021-06-07 14:54:39   继电器relay_2返回指令：FE 01 01 3F 21 8C 
2021_06_07 2021-06-07 14:54:42   继电器relay_2返回指令：FE 01 01 3F 21 8C 
2021_06_07 2021-06-07 14:54:46   继电器relay_2返回指令：FE 01 01 3F 21 8C 
2021_06_07 2021-06-07 14:54:49   继电器relay_2返回指令：FE 01 01 3F 21 8C 
2021_06_07 2021-06-07 14:54:52   继电器relay_2返回指令：FE 01 01 3F 21 8C 
2021_06_07 2021-06-07 14:54:55   继电器relay_2返回指令：FE 01 01 3F 21 8C 
2021_06_07 2021-06-07 14:54:59   继电器relay_2返回指令：FE 01 01 3F 21 8C 
2021_06_07 2021-06-07 14:55:02   继电器relay_2返回指令：FE 05 00 05 00 00 C9 C4 FE 05 00 04 00 00 98 04 FE 05 00 03 00 00 29 C5 FE 05 00 02 00 00 78 05 FE 05 00 05 00 00 C9 C4 FE 05 00 04 00 00 98 04 FE 05 00 03 00 00 29 C5 FE 05 00 02 00 00 78 05 FE 01 01 03 21 9D 
2021_06_07 2021-06-07 14:55:05   继电器relay_2返回指令：FE 01 01 03 21 9D 
2021_06_07 2021-06-07 14:55:08   继电器relay_2返回指令：FE 01 01 03 21 9D 
2021_06_07 2021-06-07 14:55:10   尝试[关闭]第10台供电
2021_06_07 2021-06-07 14:55:10   [关闭]第10台供电成功
2021_06_07 2021-06-07 14:55:36   初始化  设备relay_2连接IP ：192.168.1.136 成功
2021_06_07 2021-06-07 14:55:39   继电器relay_2返回指令：FE 01 01 01 A0 5C 
2021_06_07 2021-06-07 14:55:40   尝试[关闭]第9台供电
2021_06_07 2021-06-07 14:55:40   [关闭]第9台供电成功
2021_06_07 2021-06-07 15:09:35   初始化  设备relay_2连接IP ：192.168.1.136 成功
2021_06_07 2021-06-07 15:10:00   初始化  设备relay_2连接IP ：192.168.1.136 成功
2021_06_07 2021-06-07 15:10:15   初始化  设备relay_2连接IP ：192.168.1.136 成功
2021_06_07 2021-06-07 15:11:02   初始化  设备relay_2连接IP ：192.168.1.136 成功
2021_06_07 2021-06-07 15:11:34   初始化  设备relay_2连接IP ：192.168.1.136 成功
2021_06_07 2021-06-07 15:11:37   继电器relay_2返回指令：FE 01 01 00 61 9C 
2021_06_07 2021-06-07 15:11:41   继电器relay_2返回指令：FE 01 01 00 61 9C 
2021_06_07 2021-06-07 15:11:44   继电器relay_2返回指令：FE 01 01 00 61 9C 
2021_06_07 2021-06-07 15:11:47   继电器relay_2返回指令：FE 01 01 00 61 9C 
2021_06_07 2021-06-07 15:11:50   继电器relay_2返回指令：FE 01 01 00 61 9C 
2021_06_07 2021-06-07 15:11:54   继电器relay_2返回指令：FE 01 01 00 61 9C 
2021_06_07 2021-06-07 15:11:57   继电器relay_2返回指令：FE 05 00 05 00 00 C9 C4 FE 01 01 00 61 9C 
2021_06_07 2021-06-07 15:11:58   尝试[开启]第9台供电
2021_06_07 2021-06-07 15:11:58   [开启]第9台供电成功
2021_06_07 2021-06-07 15:11:59   尝试[开启]第10台供电
2021_06_07 2021-06-07 15:11:59   [开启]第10台供电成功
2021_06_07 2021-06-07 15:12:00   尝试[开启]第11台供电
2021_06_07 2021-06-07 15:12:00   [开启]第11台供电成功
2021_06_07 2021-06-07 15:12:00   继电器relay_2返回指令：FE 05 00 00 FF 00 98 35 FE 05 00 00 FF 00 98 35 FE 05 00 01 FF 00 C9 F5 FE 05 00 01 FF 00 C9 F5 FE 05 00 02 FF 00 39 F5 FE 05 00 02 FF 00 39 F5 FE 01 01 07 20 5E 
2021_06_07 2021-06-07 15:12:00   尝试[开启]第12台供电
2021_06_07 2021-06-07 15:12:00   [开启]第12台供电成功
2021_06_07 2021-06-07 15:12:03   继电器relay_2返回指令：FE 05 00 03 FF 00 68 35 FE 05 00 03 FF 00 68 35 FE 01 01 0F 21 98 
2021_06_07 2021-06-07 15:12:06   继电器relay_2返回指令：FE 01 01 0F 21 98 
2021_06_07 2021-06-07 15:12:10   继电器relay_2返回指令：FE 01 01 0F 21 98 
2021_06_07 2021-06-07 15:12:13   继电器relay_2返回指令：FE 01 01 0F 21 98 
2021_06_07 2021-06-07 15:12:16   继电器relay_2返回指令：FE 01 01 0F 21 98 
2021_06_07 2021-06-07 15:12:19   继电器relay_2返回指令：FE 01 01 0F 21 98 
2021_06_07 2021-06-07 15:12:22   
[全开中……]尝试开启第13台设备

2021_06_07 2021-06-07 15:12:22   [一键全开]第13台成功
2021_06_07 2021-06-07 15:12:23   继电器relay_2返回指令：FE 05 00 04 FF 00 D9 F4 FE 05 00 04 FF 00 D9 F4 FE 01 01 1F 20 54 
2021_06_07 2021-06-07 15:12:23   
[全开中……]尝试开启第14台设备

2021_06_07 2021-06-07 15:12:24   [一键全开]第14台成功
2021_06_07 2021-06-07 15:12:26   继电器relay_2返回指令：FE 05 00 05 FF 00 88 34 FE 05 00 05 FF 00 88 34 FE 01 01 3F 21 8C 
2021_06_07 2021-06-07 15:14:01   初始化  设备relay_2连接IP ：192.168.1.136 成功
2021_06_07 2021-06-07 15:14:04   尝试[开启]第9台供电
2021_06_07 2021-06-07 15:14:04   [开启]第9台供电成功
2021_06_07 2021-06-07 15:14:05   继电器relay_2返回指令：FE 05 00 00 FF 00 98 35 FE 05 00 00 FF 00 98 35 FE 01 01 3F 21 8C 
2021_06_07 2021-06-07 15:14:08   继电器relay_2返回指令：FE 01 01 3F 21 8C 
2021_06_07 2021-06-07 15:16:11   初始化  设备relay_2连接IP ：192.168.1.136 成功
2021_06_07 2021-06-07 15:16:14   继电器relay_2返回指令：FE 01 01 3F 21 8C 
2021_06_07 2021-06-07 15:16:17   继电器relay_2返回指令：FE 01 01 3F 21 8C 
2021_06_07 2021-06-07 15:16:20   继电器relay_2返回指令：FE 01 01 3F 21 8C 
2021_06_07 2021-06-07 15:16:21   尝试[关闭]第13台供电
2021_06_07 2021-06-07 15:16:21   [关闭]第13台供电成功
2021_06_07 2021-06-07 15:16:22   尝试[关闭]第14台供电
2021_06_07 2021-06-07 15:16:22   [关闭]第14台供电成功
2021_06_07 2021-06-07 15:16:23   尝试[关闭]第10台供电
2021_06_07 2021-06-07 15:16:23   [关闭]第10台供电成功
2021_06_07 2021-06-07 15:16:24   继电器relay_2返回指令：FE 05 00 04 00 00 98 04 FE 05 00 04 00 00 98 04 FE 05 00 05 00 00 C9 C4 FE 05 00 05 00 00 C9 C4 FE 05 00 01 00 00 88 05 FE 05 00 01 00 00 88 05 FE 01 01 0D A0 59 
2021_06_07 2021-06-07 15:16:25   
[全开中……]尝试开启第10台设备

2021_06_07 2021-06-07 15:16:25   [一键全开]第10台成功
2021_06_07 2021-06-07 15:16:27   继电器relay_2返回指令：FE 05 00 01 FF 00 C9 F5 FE 05 00 01 FF 00 C9 F5 FE 01 01 0F 21 98 
2021_06_07 2021-06-07 15:16:27   
[全开中……]尝试开启第13台设备

2021_06_07 2021-06-07 15:16:27   [一键全开]第13台成功
2021_06_07 2021-06-07 15:16:29   
[全开中……]尝试开启第14台设备

2021_06_07 2021-06-07 15:16:29   [一键全开]第14台成功
2021_06_07 2021-06-07 15:16:30   继电器relay_2返回指令：FE 05 00 04 FF 00 D9 F4 FE 05 00 04 FF 00 D9 F4 FE 05 00 05 FF 00 88 34 FE 05 00 05 FF 00 88 34 FE 01 01 3F 21 8C 
2021_06_07 2021-06-07 15:16:34   继电器relay_2返回指令：FE 01 01 3F 21 8C 
2021_06_07 2021-06-07 15:16:37   继电器relay_2返回指令：FE 01 01 3F 21 8C 
2021_06_07 2021-06-07 15:16:40   继电器relay_2返回指令：FE 01 01 3F 21 8C 
2021_06_07 2021-06-07 15:16:43   继电器relay_2返回指令：FE 01 01 3F 21 8C 
2021_06_07 2021-06-07 15:16:47   继电器relay_2返回指令：FE 01 01 3F 21 8C 
2021_06_07 2021-06-07 15:16:50   继电器relay_2返回指令：FE 01 01 3F 21 8C 
2021_06_07 2021-06-07 15:16:53   继电器relay_2返回指令：FE 01 01 3F 21 8C 
2021_06_07 2021-06-07 15:16:56   继电器relay_2返回指令：FE 01 01 3F 21 8C 
2021_06_07 2021-06-07 15:16:59   继电器relay_2返回指令：FE 01 01 3F 21 8C 
2021_06_07 2021-06-07 15:17:03   继电器relay_2返回指令：FE 01 01 3F 21 8C 
2021_06_07 2021-06-07 15:17:06   继电器relay_2返回指令：FE 01 01 3F 21 8C 
2021_06_07 2021-06-07 15:17:09   继电器relay_2返回指令：FE 01 01 3F 21 8C 
2021_06_07 2021-06-07 15:17:12   继电器relay_2返回指令：FE 01 01 3F 21 8C 
2021_06_07 2021-06-07 15:17:14   尝试[关闭]第13台供电
2021_06_07 2021-06-07 15:17:14   [关闭]第13台供电成功
2021_06_07 2021-06-07 15:17:14   尝试[关闭]第12台供电
2021_06_07 2021-06-07 15:17:14   [关闭]第12台供电成功
2021_06_07 2021-06-07 15:17:16   继电器relay_2返回指令：FE 05 00 04 00 00 98 04 FE 05 00 04 00 00 98 04 FE 05 00 03 00 00 29 C5 FE 05 00 03 00 00 29 C5 FE 01 01 27 21 86 
2021_06_07 2021-06-07 15:17:19   继电器relay_2返回指令：FE 01 01 27 21 86 
2021_06_07 2021-06-07 15:17:22   继电器relay_2返回指令：FE 05 00 05 00 00 C9 C4 FE 01 01 07 20 5E FE 05 00 05 00 00 C9 C4 
2021_06_07 2021-06-07 15:17:25   继电器relay_2返回指令：FE 05 00 02 00 00 78 05 FE 05 00 02 00 00 78 05 FE 01 01 03 21 9D 
2021_06_07 2021-06-07 15:17:28   继电器relay_2返回指令：FE 05 00 01 00 00 88 05 FE 05 00 01 00 00 88 05 FE 01 01 01 A0 5C 
2021_06_07 2021-06-07 15:17:32   继电器relay_2返回指令：FE 05 00 00 00 00 D9 C5 FE 05 00 00 00 00 D9 C5 FE 01 01 00 61 9C 
2021_06_07 2021-06-07 15:17:35   继电器relay_2返回指令：FE 01 01 00 61 9C 
2021_06_07 2021-06-07 15:17:38   继电器relay_2返回指令：FE 01 01 00 61 9C 
2021_06_07 2021-06-07 15:17:41   继电器relay_2返回指令：FE 01 01 00 61 9C 
2021_06_07 2021-06-07 15:17:45   继电器relay_2返回指令：FE 01 01 00 61 9C 
2021_06_07 2021-06-07 15:17:48   继电器relay_2返回指令：FE 05 00 05 00 00 C9 C4 FE 01 01 00 61 9C 
2021_06_07 2021-06-07 15:17:51   继电器relay_2返回指令：FE 01 01 00 61 9C 
2021_06_07 2021-06-07 15:17:54   继电器relay_2返回指令：FE 01 01 00 61 9C 
2021_06_07 2021-06-07 15:17:57   继电器relay_2返回指令：FE 01 01 00 61 9C 
2021_06_07 2021-06-07 15:18:01   继电器relay_2返回指令：FE 01 01 00 61 9C 
2021_06_07 2021-06-07 15:18:04   继电器relay_2返回指令：FE 01 01 00 61 9C 
2021_06_07 2021-06-07 15:18:07   继电器relay_2返回指令：FE 01 01 00 61 9C 
2021_06_07 2021-06-07 15:18:10   继电器relay_2返回指令：FE 01 01 00 61 9C 
2021_06_07 2021-06-07 15:18:13   继电器relay_2返回指令：FE 01 01 00 61 9C 
2021_06_07 2021-06-07 15:18:17   继电器relay_2返回指令：FE 01 01 00 61 9C 
2021_06_07 2021-06-07 15:18:20   继电器relay_2通信失败！
2021_06_07 2021-06-07 15:18:23   继电器relay_2通信失败！
2021_06_07 2021-06-07 15:18:27   继电器relay_2通信失败！
2021_06_07 2021-06-07 15:18:30   继电器relay_2通信失败！
2021_06_07 2021-06-07 15:24:13   初始化  设备relay_2连接IP ：192.168.1.136 失败
2021_06_07 2021-06-07 15:24:17   继电器relay_2通信失败！
2021_06_07 2021-06-07 15:24:20   继电器relay_2通信失败！
2021_06_07 2021-06-07 15:24:24   继电器relay_2通信失败！
2021_06_07 2021-06-07 15:24:27   继电器relay_2通信失败！
2021_06_07 2021-06-07 15:29:32   初始化  设备relay_2连接IP ：192.168.1.136 失败
2021_06_07 2021-06-07 15:29:35   继电器relay_2通信失败！
2021_06_07 2021-06-07 15:29:39   继电器relay_2通信失败！
2021_06_07 2021-06-07 15:37:28   初始化  设备relay_2连接IP ：192.168.1.136 失败
2021_06_07 2021-06-07 15:37:32   继电器relay_2通信失败！
2021_06_07 2021-06-07 15:38:18   初始化  设备relay_2连接IP ：192.168.1.136 失败
2021_06_07 2021-06-07 15:38:22   继电器relay_2通信失败！
2021_06_07 2021-06-07 15:38:41   初始化  设备relay_2连接IP ：192.168.1.136 失败
2021_06_07 2021-06-07 15:38:44   继电器relay_2通信失败！
2021_06_07 2021-06-07 15:40:27   初始化  设备relay_2连接IP ：192.168.1.136 失败
2021_06_07 2021-06-07 15:40:30   继电器relay_2通信失败！
2021_06_07 2021-06-07 15:40:34   继电器relay_2通信失败！
2021_06_07 2021-06-07 15:45:23   初始化  设备relay_2连接IP ：192.168.1.136 失败
2021_06_07 2021-06-07 15:45:27   继电器relay_2通信失败！
2021_06_07 2021-06-07 15:45:30   继电器relay_2通信失败！
2021_06_07 2021-06-07 15:46:47   初始化  设备relay_2连接IP ：192.168.1.136 失败
2021_06_07 2021-06-07 15:46:51   继电器relay_2通信失败！
2021_06_07 2021-06-07 15:46:54   继电器relay_2通信失败！
2021_06_07 2021-06-07 15:47:24   初始化  设备relay_2连接IP ：192.168.1.136 失败
2021_06_07 2021-06-07 15:47:28   继电器relay_2通信失败！
2021_06_07 2021-06-07 15:47:32   继电器relay_2通信失败！
2021_06_07 2021-06-07 15:49:18   初始化  设备relay_2连接IP ：192.168.1.136 失败
2021_06_07 2021-06-07 15:49:22   继电器relay_2通信失败！
2021_06_07 2021-06-07 15:49:25   继电器relay_2通信失败！
2021_06_07 2021-06-07 15:49:29   继电器relay_2通信失败！
2021_06_07 2021-06-07 16:14:08   初始化  设备relay_2连接IP ：192.168.1.136 失败
2021_06_07 2021-06-07 16:14:32   初始化  设备relay_2连接IP ：192.168.1.136 失败
2021_06_07 2021-06-07 16:15:00   初始化  设备relay_2连接IP ：192.168.1.136 失败
2021_06_07 2021-06-07 16:24:11   初始化  设备relay_2连接IP ：192.168.1.136 失败
2021_06_07 2021-06-07 16:26:15   初始化  设备relay_2连接IP ：192.168.1.136 失败
2021_06_07 2021-06-07 16:29:41   初始化  设备relay_2连接IP ：192.168.1.136 失败
2021_06_07 2021-06-07 16:29:55   继电器relay_2通信失败！
2021_06_07 2021-06-07 16:29:58   继电器relay_2通信失败！
2021_06_07 2021-06-07 16:30:02   继电器relay_2通信失败！
2021_06_07 2021-06-07 16:30:05   继电器relay_2通信失败！
2021_06_07 2021-06-07 16:30:09   继电器relay_2通信失败！
2021_06_07 2021-06-07 16:31:18   初始化  设备relay_2连接IP ：192.168.1.136 成功
2021_06_07 2021-06-07 16:31:22   继电器relay_2通信失败！
2021_06_07 2021-06-07 16:31:25   继电器relay_2通信失败！
2021_06_07 2021-06-07 16:31:29   继电器relay_2通信失败！
2021_06_07 2021-06-07 16:31:32   继电器relay_2通信失败！
2021_06_07 2021-06-07 16:32:47   初始化  设备relay_2连接IP ：192.168.1.136 失败
2021_06_07 2021-06-07 16:32:58   继电器relay_2通信失败！
2021_06_07 2021-06-07 16:33:01   继电器relay_2通信失败！
2021_06_07 2021-06-07 16:33:05   继电器relay_2通信失败！
2021_06_07 2021-06-07 16:35:06   初始化  设备relay_2连接IP ：192.168.1.136 成功
2021_06_07 2021-06-07 16:35:09   继电器relay_2通信失败！
2021_06_07 2021-06-07 16:35:13   继电器relay_2通信失败！
2021_06_07 2021-06-07 16:43:37   初始化  设备relay_2连接IP ：192.168.1.136 成功
2021_06_07 2021-06-07 16:43:40   继电器relay_2通信失败！
2021_06_07 2021-06-07 16:47:17   初始化  设备relay_2连接IP ：192.168.1.136 成功
2021_06_07 2021-06-07 16:47:20   继电器relay_2通信失败！
2021_06_07 2021-06-07 16:47:24   继电器relay_2通信失败！
2021_06_07 2021-06-07 16:47:27   继电器relay_2通信失败！
2021_06_07 2021-06-07 16:47:31   继电器relay_2通信失败！
2021_06_07 2021-06-07 16:47:34   继电器relay_2通信失败！
2021_06_07 2021-06-07 16:47:38   继电器relay_2通信失败！
2021_06_07 2021-06-07 16:50:15   初始化  设备relay_2连接IP ：192.168.1.136 失败
2021_06_07 2021-06-07 16:50:28   继电器relay_2通信失败！
2021_06_07 2021-06-07 16:50:32   继电器relay_2通信失败！
2021_06_07 2021-06-07 16:50:35   继电器relay_2通信失败！
2021_06_07 2021-06-07 16:50:39   继电器relay_2通信失败！
2021_06_07 2021-06-07 16:51:31   初始化  设备relay_2连接IP ：192.168.1.136 失败
2021_06_07 2021-06-07 16:51:41   继电器relay_2通信失败！
2021_06_07 2021-06-07 16:51:44   继电器relay_2通信失败！
2021_06_07 2021-06-07 16:51:48   继电器relay_2通信失败！
2021_06_07 2021-06-07 16:51:51   继电器relay_2通信失败！
2021_06_07 2021-06-07 16:54:50   初始化  设备relay_2连接IP ：192.168.1.136 失败
2021_06_07 2021-06-07 16:55:00   继电器relay_2通信失败！
2021_06_07 2021-06-07 16:55:13   继电器relay_2通信失败！
2021_06_07 2021-06-07 16:58:29   初始化  设备relay_2连接IP ：192.168.1.136 失败
2021_06_07 2021-06-07 16:58:43   继电器relay_2通信失败！
2021_06_07 2021-06-07 17:00:27   初始化  设备relay_2连接IP ：192.168.1.136 失败
2021_06_07 2021-06-07 17:00:42   初始化  设备relay_2连接IP ：192.168.1.136 失败
2021_06_07 2021-06-07 17:00:52   继电器relay_2通信失败！
2021_06_07 2021-06-07 17:00:58   继电器relay_2返回指令：
2021_06_07 2021-06-07 17:01:02   继电器relay_2返回指令：
2021_06_07 2021-06-07 17:01:05   继电器relay_2返回指令：
2021_06_07 2021-06-07 17:02:34   初始化  设备relay_2连接IP ：192.168.1.136 失败
2021_06_07 2021-06-07 17:02:47   继电器relay_2通信失败！
2021_06_07 2021-06-07 17:02:54   继电器relay_2返回指令：
2021_06_07 2021-06-07 17:02:57   继电器relay_2返回指令：
2021_06_07 2021-06-07 17:03:00   继电器relay_2返回指令：
2021_06_07 2021-06-07 17:03:04   继电器relay_2返回指令：
2021_06_07 2021-06-07 17:03:07   继电器relay_2返回指令：
2021_06_07 2021-06-07 17:03:10   继电器relay_2返回指令：
2021_06_07 2021-06-07 17:03:20   继电器relay_2通信失败！
2021_06_07 2021-06-07 17:03:26   继电器relay_2通信失败！
